!Keysight Technologies,E5080B,MY59202615,A.15.10.08
!Date: Wednesday, June 14, 2023 09:07:36
!Correction: S11(C  2-Port  ) 
!S21(C  2-Port  ) 
!S12(C  2-Port  ) 
!S22(C  2-Port  ) 
!S2P File: Measurements: S11, S21, S12, S22:
# Hz S  dB   R 50
2000000000 -38.84201 -37.908531 -43.861877 -32.261372 -43.890587 -32.105671 -31.574553 22.796671
2001000000 -38.851765 -40.980762 -43.871288 -38.859943 -43.782291 -39.59581 -30.999903 26.397829
2002000000 -39.324169 -52.209805 -43.866898 -45.078876 -43.880337 -45.749989 -31.992788 22.029442
2003000000 -40.15979 -44.049026 -43.925732 -52.096645 -44.095505 -51.706741 -31.70336 25.632536
2004000000 -38.993832 -43.621456 -43.840054 -58.988964 -43.793812 -57.739838 -31.790842 24.877077
2005000000 -38.362789 -43.474361 -43.764389 -64.904068 -43.849079 -65.646484 -32.494995 24.818279
2006000000 -38.802868 -54.686359 -43.78936 -72.371254 -43.804676 -72.085068 -32.244579 23.466381
2007000000 -38.493355 -48.221493 -44.002617 -77.957695 -43.919296 -77.913727 -31.762762 24.953913
2008000000 -40.284775 -62.141445 -43.831921 -84.426735 -43.816807 -85.398529 -31.918964 31.517458
2009000000 -40.261257 -48.087891 -43.819698 -90.193985 -43.758476 -91.127357 -31.929386 26.963848
2010000000 -39.767811 -54.371944 -43.790833 -98.167686 -43.963173 -99.171516 -32.36919 36.581425
2011000000 -38.999783 -45.575874 -43.777321 -103.91248 -43.887386 -104.89082 -32.311367 30.115543
2012000000 -38.336369 -50.795326 -43.739353 -109.90568 -43.898651 -110.93145 -32.377689 31.860804
2013000000 -38.149483 -59.148399 -43.84341 -117.92561 -43.706665 -117.93277 -32.466908 36.732529
2014000000 -39.270535 -58.590469 -43.782398 -124.46069 -43.780212 -123.91013 -32.781487 36.572929
2015000000 -39.712479 -55.909782 -43.9123 -129.58292 -43.91637 -129.61186 -33.202888 41.765469
2016000000 -40.47924 -52.074455 -43.771454 -136.9201 -43.817291 -137.49443 -32.178242 38.331707
2017000000 -38.009136 -65.025009 -43.728069 -143.20709 -43.736458 -143.59 -31.473827 38.941872
2018000000 -40.599548 -73.830193 -43.715733 -149.44893 -43.936512 -149.0623 -31.851744 35.140839
2019000000 -40.469967 -69.632561 -43.745617 -156.56374 -43.712818 -156.38974 -31.851572 40.644184
2020000000 -38.458595 -69.633247 -43.854134 -162.47139 -43.96254 -161.83693 -32.039204 39.648567
2021000000 -40.754585 -71.138268 -43.929932 -168.81708 -43.914734 -170.8056 -31.107937 41.276783
2022000000 -39.223309 -78.422821 -43.72839 -175.93414 -43.942329 -176.16446 -31.404484 37.38002
2023000000 -38.673016 -69.458534 -43.900616 178.02591 -43.768063 177.74251 -31.604841 35.161163
2024000000 -40.170586 -80.31012 -43.863071 171.14857 -43.781643 170.37563 -31.238585 40.412556
2025000000 -38.401665 -58.940235 -44.058792 164.70473 -43.704136 164.95914 -31.368126 42.170235
2026000000 -39.082001 -80.811874 -43.982769 157.48091 -43.907169 157.77209 -31.890596 42.398918
2027000000 -37.974579 -81.559395 -43.802204 151.41551 -43.846897 151.89476 -30.180672 40.132595
2028000000 -38.645561 -89.097 -43.877071 145.10498 -43.932693 145.19685 -30.59807 43.554668
2029000000 -40.121994 -82.769783 -44.005348 139.5154 -43.822182 138.22366 -30.574883 40.319462
2030000000 -37.940941 -76.895584 -43.957706 132.02328 -43.739574 132.10268 -30.531956 41.308491
2031000000 -40.790649 -76.21566 -43.783226 125.29738 -43.841053 126.10644 -30.083546 39.708179
2032000000 -40.984905 -74.10556 -43.707653 119.85474 -43.770405 120.51433 -30.52338 41.093658
2033000000 -38.124279 -80.804573 -43.952423 112.1175 -43.865829 112.47848 -30.066978 39.563374
2034000000 -38.537323 -77.946854 -43.994469 106.68015 -43.782955 105.75105 -30.292091 39.516022
2035000000 -40.655025 -81.031662 -43.705616 100.12772 -43.772293 99.021904 -30.588779 36.783493
2036000000 -39.788898 -84.776154 -43.935062 92.894218 -43.912689 92.753708 -30.395456 37.822887
2037000000 -39.117458 -92.102051 -43.946346 87.382607 -43.899254 86.739388 -30.207626 37.11084
2038000000 -40.035103 -96.817703 -43.8913 81.111221 -43.882084 80.748886 -30.142042 37.071308
2039000000 -38.803379 -90.957359 -43.774971 72.897896 -43.815994 73.387894 -29.960896 40.283981
2040000000 -40.343594 -102.14567 -43.924828 67.809586 -43.872044 66.342285 -29.45359 37.292313
2041000000 -39.341908 -99.916 -43.767872 61.102749 -43.794338 61.746563 -29.727139 38.059505
2042000000 -40.019356 -92.024094 -43.932178 53.287334 -43.999725 53.918835 -29.709082 36.123741
2043000000 -39.291874 -102.29915 -43.86211 48.073212 -43.92334 46.859097 -29.867443 35.466694
2044000000 -40.437523 -97.511581 -43.605385 40.903797 -44.030876 41.139935 -30.762835 34.377247
2045000000 -38.723904 -105.77067 -43.924129 35.214458 -43.796146 34.338646 -30.162903 35.29063
2046000000 -39.919044 -113.2181 -43.749031 28.558672 -43.911041 28.929348 -29.82259 33.907749
2047000000 -40.499653 -107.31387 -43.823799 21.328037 -43.730873 23.084682 -30.386347 32.773724
2048000000 -40.047577 -120.17451 -43.798386 14.659514 -43.843616 16.310772 -29.862062 36.466473
2049000000 -39.314053 -120.94669 -43.891666 10.240558 -43.9137 9.3482475 -29.816446 31.688198
2050000000 -39.825508 -112.91128 -44.081638 3.0867939 -43.958195 2.2629905 -29.885315 29.514671
2051000000 -40.124672 -123.90705 -43.856106 -3.9824286 -43.886997 -3.6493032 -29.541756 33.45805
2052000000 -38.791153 -111.49738 -43.93206 -9.3875198 -43.852901 -9.5791998 -29.090229 31.298885
2053000000 -41.121384 -124.00027 -43.84547 -16.810125 -43.78727 -17.144489 -29.675779 29.484106
2054000000 -39.052776 -107.8578 -44.013985 -23.103912 -43.695759 -22.294781 -29.763174 30.669104
2055000000 -38.523212 -115.23959 -43.951241 -29.108601 -43.812332 -29.190552 -29.956699 28.694143
2056000000 -40.871792 -126.06651 -43.887943 -36.341297 -43.846638 -36.911285 -29.740284 33.017506
2057000000 -40.221539 -134.63808 -43.913559 -42.237633 -43.958279 -42.617004 -30.162268 33.303989
2058000000 -40.742432 -140.32449 -43.906223 -49.002811 -43.900208 -48.87661 -30.082371 31.515835
2059000000 -41.336784 -129.60585 -43.807716 -55.434158 -43.9091 -55.986725 -28.98526 28.950764
2060000000 -40.068829 -133.48184 -43.793133 -62.897785 -43.845566 -61.212997 -29.378531 30.528566
2061000000 -40.453732 -147.05029 -43.743732 -69.252098 -43.885136 -69.368851 -29.496649 28.542475
2062000000 -41.570873 -133.23813 -43.990597 -75.480827 -44.066441 -74.6036 -30.012257 32.05608
2063000000 -42.453159 -133.13647 -43.74337 -82.164192 -44.000187 -81.02356 -29.5938 31.494989
2064000000 -38.419651 -135.51189 -43.926437 -88.06382 -43.561462 -87.912384 -29.658119 26.968365
2065000000 -40.857388 -131.42604 -44.105438 -94.332756 -43.761307 -95.255196 -29.502989 29.160189
2066000000 -41.897942 -144.3221 -44.115261 -100.96121 -43.885281 -100.84729 -30.077971 25.377083
2067000000 -41.776955 -139.03839 -43.892998 -106.71556 -43.983788 -107.81618 -29.876593 27.240093
2068000000 -41.392879 -173.11736 -44.072689 -114.116 -43.946903 -114.45747 -29.732334 29.683348
2069000000 -42.730259 -132.26828 -43.835564 -121.23879 -43.922184 -120.01005 -29.464926 28.793053
2070000000 -45.60947 -165.1841 -43.722473 -127.4331 -43.765541 -126.18056 -30.08391 27.639965
2071000000 -44.81773 -158.71068 -43.770004 -133.17235 -43.788452 -133.1049 -29.95752 29.996498
2072000000 -43.007053 -147.91418 -43.734501 -139.71655 -43.706211 -139.80026 -30.161205 26.751392
2073000000 -42.26152 -163.49225 -43.812069 -146.97871 -43.882839 -145.73814 -29.825195 29.457773
2074000000 -43.974766 -170.7997 -43.789635 -152.19167 -44.076958 -152.64648 -29.715784 29.892767
2075000000 -42.429493 -164.1889 -43.952827 -158.52489 -43.737106 -159.27779 -30.44442 28.895489
2076000000 -44.223515 -155.45474 -43.898361 -164.09279 -43.981289 -165.93098 -29.66139 28.362936
2077000000 -44.776886 -158.35268 -43.827442 -172.96216 -43.981842 -172.01674 -29.267551 29.39678
2078000000 -46.4771 -164.35954 -43.898533 -177.60069 -43.816788 -178.80275 -29.863022 28.399803
2079000000 -47.841927 -168.84041 -43.85725 174.70612 -44.035931 175.07669 -29.474548 29.442026
2080000000 -45.911991 -176.33211 -43.774044 168.39705 -43.954567 167.39153 -30.089781 30.537472
2081000000 -43.715439 171.73285 -43.891209 162.06599 -43.8298 161.35045 -30.019663 32.127708
2082000000 -45.405121 -157.51126 -43.812382 156.2551 -43.863674 154.99887 -29.238373 32.138283
2083000000 -46.620499 177.3559 -43.795143 149.02788 -43.65884 147.80138 -29.779833 31.973915
2084000000 -45.192314 159.43942 -43.928341 143.8588 -43.96954 142.14636 -29.666185 31.226799
2085000000 -47.259663 171.63133 -43.782047 135.86839 -43.88229 136.15559 -29.352737 30.606409
2086000000 -46.262119 134.96983 -43.832844 128.9045 -43.920879 129.28276 -29.395905 30.491451
2087000000 -46.645527 146.74225 -43.865017 123.80917 -43.722824 121.69888 -29.27002 32.796535
2088000000 -46.938709 156.13155 -43.889347 115.88894 -43.862644 116.34631 -28.935307 31.181114
2089000000 -49.841084 121.57282 -43.800041 110.12418 -43.823975 111.186 -29.232821 27.909252
2090000000 -48.668446 103.01917 -43.954082 103.526 -43.859154 103.25874 -29.1387 31.055798
2091000000 -47.502758 130.86887 -43.84864 96.874367 -43.794647 98.393044 -29.207239 31.970398
2092000000 -51.001656 92.090889 -43.850185 90.443161 -43.979862 90.610252 -29.140112 29.441343
2093000000 -46.659664 85.537445 -43.870564 84.628029 -43.817612 83.998016 -28.744987 29.546173
2094000000 -47.810925 64.009216 -43.868679 77.110329 -43.985767 77.140579 -28.642107 31.324316
2095000000 -49.868938 95.772705 -43.866467 71.283592 -43.875542 70.864853 -28.660875 28.506538
2096000000 -51.93158 101.48907 -43.818672 64.477097 -43.980785 64.382904 -29.006428 25.941715
2097000000 -44.956387 70.393272 -43.918163 56.954887 -43.847836 57.533558 -28.926512 29.714493
2098000000 -45.114845 41.300991 -43.731445 52.606899 -43.978863 52.482998 -28.632856 27.757233
2099000000 -47.452366 26.19309 -43.70742 45.274693 -43.805241 45.694279 -28.170727 28.725555
2100000000 -47.557686 64.714989 -43.99395 38.964417 -43.71925 38.871223 -28.130487 27.496393
2101000000 -47.032337 32.142326 -43.66573 33.022602 -43.649738 32.772194 -28.595745 27.228781
2102000000 -44.597458 41.032726 -43.669376 25.325308 -43.721611 24.727165 -27.907576 26.669893
2103000000 -46.462399 24.879641 -43.709957 18.876125 -43.711555 18.562237 -28.486784 22.59199
2104000000 -42.114845 21.318823 -43.835327 12.028653 -43.837162 12.63399 -28.330568 25.101831
2105000000 -42.140427 15.921977 -43.756023 5.9071431 -43.811974 5.2178922 -28.014206 23.855516
2106000000 -41.962952 24.934647 -43.840313 -0.43298203 -43.702423 -0.58109981 -28.016287 22.653227
2107000000 -42.994598 16.563757 -43.854458 -6.6530528 -43.748466 -6.5229826 -28.147211 20.450825
2108000000 -44.202095 4.4746375 -43.872917 -12.888653 -43.877396 -12.50458 -28.504356 18.886492
2109000000 -42.511944 5.0169163 -43.813099 -20.026274 -43.63953 -20.160275 -28.003716 20.276268
2110000000 -41.812698 20.261824 -43.959362 -27.596563 -43.663006 -26.614986 -27.941002 19.608746
2111000000 -42.309326 12.097004 -43.822037 -33.474297 -43.739258 -32.051178 -28.106939 18.986725
2112000000 -41.075825 -4.710443 -43.853046 -40.743496 -43.747437 -40.199471 -28.24481 17.01569
2113000000 -39.722946 7.7566342 -43.827763 -45.051697 -43.763134 -46.696697 -28.368134 17.351198
2114000000 -39.578117 -7.1013446 -43.81361 -52.214951 -43.831657 -52.634979 -28.277184 16.247387
2115000000 -39.042759 -5.3344007 -43.771786 -59.079704 -43.701431 -59.681564 -28.442598 18.191595
2116000000 -40.177059 0.58974701 -43.871708 -65.948174 -43.653671 -65.116364 -28.532848 15.566493
2117000000 -40.019058 -7.3930607 -43.715477 -72.11438 -43.702412 -71.942261 -28.097647 12.643135
2118000000 -38.166492 -14.942817 -43.722031 -78.93438 -43.750664 -77.450539 -28.667105 17.313429
2119000000 -38.457455 -7.4583855 -43.911572 -85.224129 -43.759407 -84.489227 -29.15518 15.745512
2120000000 -38.441589 -0.33646807 -43.568737 -91.75959 -43.830395 -90.556503 -28.557531 17.781252
2121000000 -37.549625 -18.8396 -43.747181 -97.002884 -43.702618 -98.078575 -29.021303 15.622293
2122000000 -37.985909 -4.710093 -43.626286 -105.00487 -43.982353 -104.26272 -28.790077 17.60557
2123000000 -38.035934 -20.011297 -43.73259 -111.62468 -43.706787 -111.86063 -28.759396 15.88569
2124000000 -36.875557 -32.69083 -43.904671 -117.37393 -43.832909 -117.75517 -29.12919 16.841413
2125000000 -37.627823 -24.093699 -43.824421 -123.72346 -43.759239 -123.3719 -28.958986 13.552497
2126000000 -37.249973 -35.108028 -43.792988 -131.18636 -44.031517 -130.21547 -28.90374 14.105207
2127000000 -37.551754 -27.339191 -43.875549 -137.41571 -43.853245 -137.30066 -28.641552 17.168348
2128000000 -36.073521 -26.797081 -43.726086 -142.34462 -43.733379 -142.5686 -28.545832 14.064
2129000000 -35.816429 -34.671463 -43.742748 -149.57523 -43.830624 -148.70241 -28.791409 13.940078
2130000000 -36.132339 -29.218815 -43.755939 -156.39691 -44.068356 -155.8519 -29.054453 17.144497
2131000000 -35.753796 -36.084305 -43.76255 -163.52536 -43.925163 -162.79036 -29.532139 14.481287
2132000000 -36.259689 -35.76223 -43.938061 -170.36414 -43.642056 -168.40118 -28.876186 18.057997
2133000000 -35.64109 -40.731152 -43.886909 -175.5229 -43.780731 -175.10422 -29.136742 16.48329
2134000000 -35.653839 -45.76342 -43.943752 176.04044 -43.864159 178.30797 -28.564926 15.862868
2135000000 -35.664963 -46.187698 -43.796253 171.23741 -43.806721 170.67603 -28.662397 15.610362
2136000000 -35.137508 -47.013683 -43.703205 165.93906 -43.74202 164.37875 -29.196346 14.786897
2137000000 -35.200882 -43.941875 -43.741219 157.2924 -43.758339 157.32248 -28.715723 14.628373
2138000000 -35.495209 -47.15844 -43.808594 151.65555 -43.753662 151.58818 -28.837463 17.606155
2139000000 -35.268909 -58.295483 -43.801884 144.43388 -43.71574 146.71581 -28.927677 15.518371
2140000000 -34.944962 -56.735336 -43.933239 137.73148 -43.65379 139.06123 -28.766644 15.636638
2141000000 -34.359043 -51.980331 -43.805336 132.08139 -43.747414 132.26227 -28.728727 14.688689
2142000000 -35.312759 -61.815037 -43.802338 125.31288 -43.680248 125.56052 -28.707258 14.031222
2143000000 -35.356518 -54.837261 -43.838097 120.31031 -43.912262 118.34513 -29.14904 14.732892
2144000000 -35.027344 -68.393944 -43.931675 113.08761 -43.701157 113.08169 -28.640753 16.027777
2145000000 -36.491753 -61.280773 -43.914497 107.35308 -43.734745 105.0602 -28.951777 17.958139
2146000000 -34.536541 -60.883141 -43.784805 99.508514 -43.893829 100.64341 -29.179407 9.2901659
2147000000 -34.581562 -65.070679 -43.849457 94.241631 -43.80344 93.203766 -28.974806 13.370933
2148000000 -34.994892 -71.908859 -44.039387 86.518661 -43.876812 86.785149 -28.980427 13.912969
2149000000 -35.144867 -71.675468 -43.82151 81.315544 -43.835541 80.165794 -28.988918 14.312933
2150000000 -35.495213 -72.006058 -43.826355 73.203812 -43.754112 73.495346 -29.03956 13.093171
2151000000 -34.121075 -72.938583 -43.844589 67.719955 -43.777584 68.749283 -28.71736 11.492631
2152000000 -34.542751 -74.434433 -43.828743 62.351139 -43.921497 61.235229 -28.999584 12.58807
2153000000 -34.666325 -82.749023 -43.687 54.59618 -43.804779 53.882191 -29.048895 10.068226
2154000000 -34.108109 -89.426796 -43.957855 47.961414 -43.767498 49.192574 -29.142559 11.815482
2155000000 -34.400742 -92.348564 -43.85141 41.716423 -43.899742 41.016708 -28.913633 10.919057
2156000000 -34.085728 -90.228172 -43.826759 35.28804 -43.769428 36.083828 -28.947268 9.3242092
2157000000 -35.691097 -92.414368 -43.895607 29.63167 -43.903656 29.067991 -29.255177 9.0761452
2158000000 -33.689827 -95.075211 -43.866596 22.036177 -43.867939 22.696384 -29.65864 9.9843941
2159000000 -33.573383 -93.969704 -43.720161 16.393105 -43.861336 16.496201 -29.754919 10.195336
2160000000 -35.033379 -92.10939 -43.875103 8.7557602 -43.796249 9.7510033 -28.957434 9.7724752
2161000000 -35.374245 -99.998466 -43.611893 2.7542355 -43.862072 2.7018921 -29.223145 8.4901533
2162000000 -34.290936 -102.23159 -43.815395 -2.8934278 -43.845001 -3.0036533 -29.720102 9.9138756
2163000000 -34.121239 -105.54616 -43.874348 -9.6138697 -43.955772 -9.9021311 -29.492773 4.8840694
2164000000 -35.578896 -110.83051 -43.862564 -17.793528 -43.71072 -16.423531 -29.551184 9.4490881
2165000000 -34.903976 -114.39584 -43.761227 -23.089378 -43.812099 -22.605579 -29.796804 11.109853
2166000000 -34.729061 -114.13633 -43.768551 -28.957848 -43.900345 -29.22081 -29.15621 6.9480414
2167000000 -34.926418 -116.22 -43.834049 -36.037399 -43.694805 -35.241642 -29.568796 6.9368224
2168000000 -34.894493 -122.23679 -43.652573 -43.029854 -43.749527 -42.925045 -30.094482 8.45051
2169000000 -36.047413 -119.93571 -43.673046 -47.89608 -43.669693 -48.97934 -29.478853 9.4955082
2170000000 -34.688679 -121.78522 -43.744579 -54.299465 -44.076431 -55.235203 -29.387463 9.8948956
2171000000 -34.367321 -124.42004 -43.789433 -61.145794 -43.651287 -61.655594 -29.668665 11.033504
2172000000 -34.749928 -128.43146 -43.615597 -68.196274 -43.79184 -68.70639 -29.669188 12.202801
2173000000 -34.687477 -130.8401 -43.821304 -74.219543 -43.864716 -74.565552 -29.702341 8.567318
2174000000 -33.934143 -139.29691 -43.65218 -81.633736 -43.704029 -80.842224 -29.587318 8.4042854
2175000000 -34.035831 -141.52367 -43.807598 -88.602432 -43.727322 -88.249237 -29.103094 7.2343879
2176000000 -35.67915 -137.52225 -43.689014 -93.68988 -43.725315 -94.205124 -29.275414 7.1789899
2177000000 -34.636898 -140.28642 -43.674587 -100.66397 -43.641102 -101.27552 -28.994192 7.0014873
2178000000 -34.48304 -144.86584 -43.824772 -108.06293 -43.839615 -107.77209 -29.520321 11.154391
2179000000 -35.38126 -146.82899 -43.6856 -113.04832 -43.750671 -114.28757 -28.979132 8.5451565
2180000000 -34.506485 -150.51006 -43.604225 -120.15791 -43.6651 -121.03771 -29.641674 7.1916904
2181000000 -35.742554 -149.53661 -43.798576 -126.33249 -43.834953 -127.57918 -29.601646 9.8838072
2182000000 -35.823685 -148.98807 -43.713287 -133.96065 -43.784897 -135.01044 -29.875982 9.9806728
2183000000 -34.644917 -161.57018 -43.602093 -139.20569 -43.583855 -141.6664 -29.919952 6.0392361
2184000000 -35.893208 -163.93008 -43.705734 -145.70731 -43.774166 -148.44098 -29.9375 9.0120363
2185000000 -35.493942 -161.82922 -43.702236 -153.43428 -43.738705 -152.93468 -29.259897 6.0733061
2186000000 -35.475113 -171.06635 -43.589211 -159.75381 -43.722942 -158.91948 -29.522001 9.6737127
2187000000 -36.795231 -170.48241 -43.665897 -164.66867 -43.826458 -166.39896 -29.669693 9.6218596
2188000000 -36.527092 -171.53723 -43.647369 -172.91312 -43.581875 -172.78665 -29.341091 12.545363
2189000000 -35.01836 -172.66327 -43.775906 -178.15184 -43.773766 -179.14442 -29.199738 9.7911329
2190000000 -36.49321 -170.16882 -43.547691 175.12073 -43.503304 174.30574 -30.086445 9.4825935
2191000000 -35.761478 177.33852 -43.609627 167.9816 -43.69297 167.64574 -29.515514 9.4320593
2192000000 -37.189983 174.75743 -43.71056 161.40515 -43.733696 160.91745 -29.597294 11.586953
2193000000 -36.344498 168.65849 -43.61668 155.28821 -43.538059 154.00873 -29.819899 8.7690191
2194000000 -37.190483 175.38412 -43.65707 148.97227 -43.479717 149.2926 -30.162292 13.259722
2195000000 -37.264194 172.23358 -43.784973 141.47136 -43.598808 142.36668 -29.898281 11.717599
2196000000 -36.447598 155.30943 -43.575542 135.37749 -43.718475 135.69177 -30.543959 14.249063
2197000000 -36.710117 148.99181 -43.747166 128.80159 -43.75425 129.58771 -29.451626 11.798582
2198000000 -36.773537 160.16444 -43.746876 121.24793 -43.682026 121.59406 -30.09202 14.620996
2199000000 -38.068359 153.72574 -43.65155 115.77056 -43.839314 115.60738 -30.124687 15.008637
2200000000 -37.915134 145.43262 -43.615562 108.83299 -43.637901 108.52447 -30.000181 14.4609
2201000000 -38.923313 142.34203 -43.78286 103.61155 -43.762192 103.50212 -29.811535 13.804686
2202000000 -39.038551 154.35103 -43.80463 95.470566 -43.781006 96.446938 -29.499792 16.276003
